!Data & Calibration Information:
!Freq	S11:SOLT2(ON)
!PortZ  Port1:50+j0
!Above PortZ is port z conversion or system Z0 setting when saving the data.
!When reading, reference impedance value at option line is always used.
# Hz S RI R 50
1.000000000000000000e+05 1.000051000000000023e+00 -1.653643999999999947e-02
1.001750000000000000e+05 1.000733000000000095e+00 -1.650350000000000081e-02
1.003490000000000000e+05 1.000912000000000024e+00 -1.542399000000000027e-02
1.005240000000000000e+05 1.000515000000000043e+00 -1.642764999999999850e-02
1.006980000000000000e+05 9.995950000000000113e-01 -1.655596999999999971e-02
1.008730000000000000e+05 1.001465000000000050e+00 -1.682335000000000080e-02
1.010480000000000000e+05 1.000979999999999981e+00 -1.550868000000000038e-02
1.012220000000000000e+05 1.000577999999999967e+00 -1.712512000000000062e-02
1.013970000000000000e+05 1.001238000000000072e+00 -1.751756999999999967e-02
1.015720000000000000e+05 1.001058000000000003e+00 -1.583253000000000091e-02
1.017460000000000000e+05 1.000307999999999975e+00 -1.767670000000000005e-02
1.019210000000000000e+05 1.000375999999999932e+00 -1.647248000000000115e-02
1.020950000000000000e+05 1.000793000000000044e+00 -1.714260000000000089e-02
1.022700000000000000e+05 1.001212999999999909e+00 -1.673401000000000055e-02
1.024450000000000000e+05 1.000256000000000034e+00 -1.643899000000000055e-02
1.026190000000000000e+05 1.001123999999999903e+00 -1.613761000000000015e-02
1.027940000000000000e+05 1.000439000000000078e+00 -1.762251000000000095e-02
1.029680000000000000e+05 1.001125000000000043e+00 -1.588310999999999890e-02
1.031430000000000000e+05 1.000606000000000106e+00 -1.675364999999999840e-02
1.033180000000000000e+05 1.000023000000000106e+00 -1.770311999999999927e-02
1.034920000000000000e+05 9.997945000000000304e-01 -1.742594000000000087e-02
1.036670000000000000e+05 1.000874000000000041e+00 -1.666004999999999917e-02
1.038420000000000000e+05 1.001991000000000076e+00 -1.823709999999999914e-02
1.040160000000000000e+05 1.000499999999999945e+00 -1.702503000000000002e-02
1.041910000000000000e+05 1.000472000000000028e+00 -1.756204999999999919e-02
1.043650000000000000e+05 1.000656999999999908e+00 -1.752938999999999886e-02
1.045400000000000000e+05 1.000631999999999966e+00 -1.587792999999999843e-02
1.047150000000000000e+05 1.000081999999999915e+00 -1.745945999999999956e-02
1.048890000000000000e+05 1.000966999999999940e+00 -1.643928000000000056e-02
1.050640000000000000e+05 9.992138999999999882e-01 -1.750855000000000120e-02
1.052380000000000000e+05 9.996888999999999914e-01 -1.831570999999999894e-02
1.054130000000000000e+05 1.000367000000000006e+00 -1.778998000000000038e-02
1.055880000000000000e+05 1.000958999999999932e+00 -1.835952999999999891e-02
1.057620000000000000e+05 1.000515000000000043e+00 -1.635682000000000108e-02
1.059370000000000000e+05 9.991455999999999671e-01 -1.743101000000000025e-02
1.061120000000000000e+05 1.001246000000000080e+00 -1.794540000000000024e-02
1.062860000000000000e+05 9.995431000000000177e-01 -1.764413999999999913e-02
1.064610000000000000e+05 9.993115999999999666e-01 -1.679428000000000171e-02
1.066350000000000000e+05 9.998337999999999948e-01 -1.754056999999999839e-02
1.068100000000000000e+05 1.001028999999999947e+00 -1.727586999999999873e-02
1.069850000000000000e+05 1.000601000000000074e+00 -1.700091999999999923e-02
1.071590000000000000e+05 1.000655000000000072e+00 -1.687469999999999942e-02
1.073340000000000000e+05 1.000796999999999937e+00 -1.865464000000000011e-02
1.075080000000000000e+05 1.000428000000000095e+00 -1.837536000000000030e-02
1.076830000000000000e+05 1.002628999999999992e+00 -1.757743000000000153e-02
1.078580000000000000e+05 1.000191999999999970e+00 -1.887874000000000149e-02
1.080320000000000000e+05 1.000016999999999934e+00 -1.890334000000000111e-02
1.082070000000000000e+05 9.995041000000000064e-01 -1.805206999999999992e-02
1.083810000000000000e+05 1.000599999999999934e+00 -1.803509999999999835e-02
1.085560000000000000e+05 1.000707000000000013e+00 -1.787448999999999982e-02
1.087310000000000000e+05 1.001511000000000040e+00 -1.805218000000000100e-02
1.089050000000000000e+05 1.000510000000000010e+00 -1.864079999999999904e-02
1.090800000000000000e+05 1.001203000000000065e+00 -1.824626999999999846e-02
1.092550000000000000e+05 9.993634000000000128e-01 -1.884985999999999953e-02
1.094290000000000000e+05 1.000010000000000066e+00 -1.747115999999999947e-02
1.096040000000000000e+05 1.000212000000000101e+00 -1.854917000000000024e-02
1.097780000000000000e+05 1.000380000000000047e+00 -1.727176999999999879e-02
1.099530000000000000e+05 1.001058000000000003e+00 -1.871893000000000168e-02
1.101280000000000000e+05 9.993794999999999762e-01 -1.828209999999999905e-02
1.103020000000000000e+05 1.000175999999999954e+00 -1.828839000000000159e-02
1.104770000000000000e+05 1.001085000000000003e+00 -1.928985999999999895e-02
1.106510000000000000e+05 9.993218000000000378e-01 -1.830065000000000164e-02
1.108260000000000000e+05 1.000768000000000102e+00 -1.922909000000000077e-02
1.110010000000000000e+05 1.001198999999999950e+00 -1.920252999999999891e-02
1.111750000000000000e+05 9.994317999999999813e-01 -1.930449000000000054e-02
1.113500000000000000e+05 1.000749000000000111e+00 -1.902498999999999857e-02
1.115250000000000000e+05 1.001101999999999936e+00 -1.848336999999999897e-02
1.116990000000000000e+05 1.000666000000000055e+00 -1.777474999999999888e-02
1.118740000000000000e+05 1.001465000000000050e+00 -1.835349999999999829e-02
1.120480000000000000e+05 1.001849999999999907e+00 -1.829719999999999958e-02
1.122230000000000000e+05 1.000059000000000031e+00 -1.882011000000000100e-02
1.123980000000000000e+05 1.000652000000000097e+00 -2.005095000000000141e-02
1.125720000000000000e+05 1.000539999999999985e+00 -1.871808999999999973e-02
1.127470000000000000e+05 1.000663000000000080e+00 -1.867194000000000145e-02
1.129210000000000000e+05 9.985633999999999899e-01 -1.846230999999999914e-02
1.130960000000000000e+05 1.001341999999999954e+00 -2.043810999999999892e-02
1.132710000000000000e+05 1.000877000000000017e+00 -2.029339000000000143e-02
1.134450000000000000e+05 1.000742999999999938e+00 -1.925523999999999986e-02
1.136200000000000000e+05 1.000828999999999969e+00 -1.852784999999999849e-02
1.137950000000000000e+05 1.001228999999999925e+00 -1.914487999999999954e-02
1.139690000000000000e+05 9.986247999999999791e-01 -2.047298999999999994e-02
1.141440000000000000e+05 9.995190999999999937e-01 -1.995223000000000135e-02
1.143180000000000000e+05 1.000496000000000052e+00 -1.970519000000000090e-02
1.144930000000000000e+05 1.001408000000000076e+00 -1.961552999999999908e-02
1.146680000000000000e+05 1.001282999999999923e+00 -1.877173999999999857e-02
1.148420000000000000e+05 1.000572999999999935e+00 -1.936101999999999962e-02
1.150170000000000000e+05 9.994212999999999569e-01 -1.833072999999999994e-02
1.151910000000000000e+05 9.995758000000000143e-01 -1.791577999999999921e-02
1.153660000000000000e+05 1.000469000000000053e+00 -2.100617999999999930e-02
1.155410000000000000e+05 9.997397999999999563e-01 -1.935848999999999903e-02
1.157150000000000000e+05 1.001503000000000032e+00 -1.971602000000000077e-02
1.158900000000000000e+05 1.000011999999999901e+00 -2.039962999999999846e-02
1.160650000000000000e+05 9.991242999999999652e-01 -2.033139999999999947e-02
1.162390000000000000e+05 1.000159000000000020e+00 -1.900289999999999965e-02
1.164140000000000000e+05 1.001060999999999979e+00 -1.998749999999999832e-02
1.165880000000000000e+05 1.000593000000000066e+00 -2.038834000000000132e-02
1.167630000000000000e+05 1.000731000000000037e+00 -1.979969999999999994e-02
1.169380000000000000e+05 1.000953999999999899e+00 -1.874692000000000025e-02
1.171120000000000000e+05 1.000424999999999898e+00 -2.062388999999999889e-02
1.172870000000000000e+05 1.000043999999999933e+00 -1.981213999999999892e-02
1.174610000000000000e+05 9.997559999999999780e-01 -1.825306000000000151e-02
1.176360000000000000e+05 1.000507999999999953e+00 -1.924253999999999895e-02
1.178110000000000000e+05 1.000534000000000034e+00 -2.048656000000000088e-02
1.179850000000000000e+05 1.000000999999999918e+00 -1.968042999999999876e-02
1.181600000000000000e+05 1.001635000000000053e+00 -2.108604999999999854e-02
1.183350000000000000e+05 1.001935000000000020e+00 -2.075159999999999852e-02
1.185090000000000000e+05 9.998879999999999990e-01 -1.970726000000000075e-02
1.186840000000000000e+05 1.000229000000000035e+00 -1.920347000000000026e-02
1.188580000000000000e+05 9.987167999999999601e-01 -1.873968000000000161e-02
1.190330000000000000e+05 1.000667999999999891e+00 -1.955424999999999872e-02
1.192080000000000000e+05 1.000675999999999899e+00 -1.940522000000000080e-02
1.193820000000000000e+05 1.000609000000000082e+00 -1.948729999999999907e-02
1.195570000000000000e+05 1.001584999999999948e+00 -1.997532000000000127e-02
1.197310000000000000e+05 1.001055999999999946e+00 -1.988929999999999865e-02
1.199060000000000000e+05 9.998291000000000261e-01 -2.074196999999999846e-02
1.200810000000000000e+05 1.000258000000000091e+00 -1.963563999999999934e-02
1.202550000000000000e+05 1.001196999999999893e+00 -2.030741000000000143e-02
1.204300000000000000e+05 1.001238999999999990e+00 -2.030395000000000116e-02
1.206050000000000000e+05 9.990542999999999507e-01 -1.910041000000000169e-02
1.207790000000000000e+05 1.000480000000000036e+00 -1.963548999999999850e-02
1.209540000000000000e+05 1.000256000000000034e+00 -2.074172000000000168e-02
1.211280000000000000e+05 1.000993999999999939e+00 -1.902685000000000140e-02
1.213030000000000000e+05 1.000464000000000020e+00 -1.935036000000000048e-02
1.214780000000000000e+05 1.001003000000000087e+00 -2.029714000000000171e-02
1.216520000000000000e+05 1.000790000000000068e+00 -2.061812999999999840e-02
1.218270000000000000e+05 1.001811000000000007e+00 -2.108836999999999864e-02
1.220010000000000000e+05 9.998941000000000079e-01 -2.045825999999999895e-02
1.221760000000000000e+05 1.000396999999999981e+00 -2.061734999999999957e-02
1.223510000000000000e+05 9.989474000000000409e-01 -1.984303000000000108e-02
1.225250000000000000e+05 1.000887000000000082e+00 -2.041248999999999841e-02
1.227000000000000000e+05 9.998160999999999854e-01 -2.091020999999999852e-02
1.228740000000000000e+05 1.000666000000000055e+00 -2.155645999999999951e-02
1.230490000000000000e+05 1.000982000000000038e+00 -2.019537999999999889e-02
1.232240000000000000e+05 1.001012999999999931e+00 -2.156838000000000158e-02
1.233980000000000000e+05 1.001057000000000086e+00 -2.094955000000000081e-02
1.235730000000000000e+05 9.992649999999999588e-01 -2.113479999999999873e-02
1.237480000000000000e+05 1.000216999999999912e+00 -2.097728000000000093e-02
1.239220000000000000e+05 9.992189999999999683e-01 -1.985736999999999919e-02
1.240970000000000000e+05 1.000097999999999931e+00 -2.036614000000000133e-02
1.242710000000000000e+05 1.000928999999999958e+00 -2.222185999999999953e-02
1.244460000000000000e+05 9.990847000000000477e-01 -2.038531000000000024e-02
1.246210000000000000e+05 9.994547000000000292e-01 -2.102597999999999967e-02
1.247950000000000000e+05 9.999791999999999570e-01 -2.136127999999999985e-02
1.249700000000000000e+05 9.985102999999999618e-01 -2.084193999999999977e-02
1.251440000000000000e+05 1.001794000000000073e+00 -2.113579999999999973e-02
1.253190000000000000e+05 1.001530999999999949e+00 -2.125849999999999962e-02
1.254940000000000000e+05 1.000035000000000007e+00 -2.115484000000000114e-02
1.256680000000000000e+05 1.000026999999999999e+00 -2.187752000000000099e-02
1.258430000000000000e+05 1.000860000000000083e+00 -2.026537000000000130e-02
1.260180000000000000e+05 1.000308999999999893e+00 -2.078848000000000154e-02
1.261920000000000000e+05 1.000852999999999993e+00 -2.110286000000000106e-02
1.263670000000000000e+05 9.993556000000000106e-01 -2.159151000000000126e-02
1.265410000000000000e+05 1.000920999999999950e+00 -2.081691000000000097e-02
1.267160000000000000e+05 1.000776000000000110e+00 -2.118878999999999901e-02
1.268910000000000000e+05 1.000663000000000080e+00 -2.173407000000000117e-02
1.270650000000000000e+05 1.000297999999999909e+00 -2.093862000000000154e-02
1.272400000000000000e+05 1.000369999999999981e+00 -2.036253000000000021e-02
1.274140000000000000e+05 9.996473000000000164e-01 -2.165401000000000131e-02
1.275890000000000000e+05 9.992446999999999857e-01 -2.179145999999999861e-02
1.277640000000000000e+05 1.000642000000000031e+00 -2.200020000000000100e-02
1.279380000000000000e+05 9.995066000000000228e-01 -2.013772999999999952e-02
1.281130000000000000e+05 1.000167000000000028e+00 -2.250034000000000062e-02
1.282880000000000000e+05 1.000399999999999956e+00 -2.150097999999999940e-02
1.284620000000000000e+05 1.000478999999999896e+00 -2.150039999999999937e-02
1.286370000000000000e+05 1.000707999999999931e+00 -2.191751999999999936e-02
1.288110000000000000e+05 9.999169999999999447e-01 -2.162170999999999885e-02
1.289860000000000000e+05 9.979559000000000069e-01 -2.074776999999999871e-02
1.291610000000000000e+05 1.000887000000000082e+00 -2.197750000000000051e-02
1.293350000000000000e+05 9.991031999999999691e-01 -2.200310999999999934e-02
1.295100000000000000e+05 9.995562999999999532e-01 -2.293827000000000019e-02
1.296840000000000000e+05 9.991086999999999607e-01 -2.099194000000000060e-02
1.298590000000000000e+05 1.000358999999999998e+00 -2.208161999999999972e-02
1.300340000000000000e+05 1.000267999999999935e+00 -2.236213000000000090e-02
1.302080000000000000e+05 1.000410000000000021e+00 -2.134936000000000125e-02
1.303830000000000000e+05 1.000256999999999952e+00 -2.193109000000000031e-02
1.305580000000000000e+05 1.000782999999999978e+00 -2.230158000000000140e-02
1.307320000000000000e+05 1.000137999999999971e+00 -2.250248999999999999e-02
1.309070000000000000e+05 9.992467999999999906e-01 -2.218849000000000168e-02
1.310810000000000000e+05 9.999924000000000035e-01 -2.389435999999999991e-02
1.312560000000000000e+05 1.000974999999999948e+00 -2.377668999999999963e-02
1.314310000000000000e+05 9.989228999999999470e-01 -2.306586000000000053e-02
1.316050000000000000e+05 1.000475999999999921e+00 -2.165593999999999852e-02
1.317800000000000000e+05 9.996819000000000122e-01 -2.086319999999999841e-02
1.319540000000000000e+05 9.992891999999999886e-01 -2.241107000000000168e-02
1.321290000000000000e+05 9.991280000000000161e-01 -2.132716999999999946e-02
1.323040000000000000e+05 9.995334000000000163e-01 -2.303948000000000107e-02
1.324780000000000000e+05 1.001104999999999912e+00 -2.163647000000000140e-02
1.326530000000000000e+05 1.000658000000000047e+00 -2.255503000000000022e-02
1.328280000000000000e+05 9.996294999999999487e-01 -2.366787000000000057e-02
1.330020000000000000e+05 9.997679000000000427e-01 -2.299083999999999850e-02
1.331770000000000000e+05 9.991826000000000318e-01 -2.346621999999999944e-02
1.333510000000000000e+05 9.996203000000000172e-01 -2.218658999999999909e-02
1.335260000000000000e+05 1.000424999999999898e+00 -2.374514000000000138e-02
1.337010000000000000e+05 9.989848999999999535e-01 -2.301397999999999985e-02
1.338750000000000000e+05 9.994347000000000092e-01 -2.227045999999999887e-02
1.340500000000000000e+05 9.988964999999999650e-01 -2.159809000000000034e-02
1.342240000000000000e+05 1.000795000000000101e+00 -2.354028999999999844e-02
1.343990000000000000e+05 9.997913000000000494e-01 -2.418742000000000114e-02
1.345740000000000000e+05 1.001109000000000027e+00 -2.304443000000000116e-02
1.347480000000000000e+05 1.000903000000000098e+00 -2.333703000000000166e-02
1.349500000000000000e+05 1.000091999999999981e+00 -2.384752000000000052e-02
1.351860000000000000e+05 1.000067999999999957e+00 -2.332290000000000058e-02
1.354220000000000000e+05 9.981719999999999482e-01 -2.287449000000000079e-02
1.356570000000000000e+05 9.995076000000000516e-01 -2.370919000000000151e-02
1.358930000000000000e+05 1.000521999999999911e+00 -2.208805999999999964e-02
1.361290000000000000e+05 1.000428000000000095e+00 -2.204599000000000142e-02
1.363640000000000000e+05 9.997443000000000302e-01 -2.330033000000000104e-02
1.366000000000000000e+05 1.000396000000000063e+00 -2.406691999999999859e-02
1.368360000000000000e+05 9.999683000000000321e-01 -2.426446999999999979e-02
1.370710000000000000e+05 1.000885000000000025e+00 -2.278271999999999936e-02
1.373070000000000000e+05 1.000726999999999922e+00 -2.492743999999999863e-02
1.375420000000000000e+05 9.991008999999999585e-01 -2.563525999999999999e-02
1.377780000000000000e+05 9.988228999999999580e-01 -2.217337000000000127e-02
1.380140000000000000e+05 1.000963999999999965e+00 -2.402810999999999836e-02
1.382490000000000000e+05 1.000415000000000054e+00 -2.240315999999999835e-02
1.384850000000000000e+05 1.000143999999999922e+00 -2.332423999999999956e-02
1.387210000000000000e+05 9.993075999999999626e-01 -2.406004999999999949e-02
1.389560000000000000e+05 1.000391000000000030e+00 -2.557378000000000082e-02
1.391920000000000000e+05 9.993608999999999964e-01 -2.361494999999999914e-02
1.394280000000000000e+05 1.000863999999999976e+00 -2.293668999999999916e-02
1.396630000000000000e+05 1.000939999999999941e+00 -2.403274999999999856e-02
1.398990000000000000e+05 9.996007999999999560e-01 -2.581448000000000076e-02
1.401350000000000000e+05 1.000577999999999967e+00 -2.554363999999999940e-02
1.403700000000000000e+05 1.000625000000000098e+00 -2.447387000000000173e-02
1.406060000000000000e+05 1.000391000000000030e+00 -2.416998999999999884e-02
1.408410000000000000e+05 1.000005000000000033e+00 -2.384533000000000139e-02
1.410770000000000000e+05 9.997884000000000215e-01 -2.411411999999999931e-02
1.413130000000000000e+05 9.989616000000000051e-01 -2.537216999999999945e-02
1.415480000000000000e+05 1.000577000000000050e+00 -2.455515000000000128e-02
1.417840000000000000e+05 9.996852000000000515e-01 -2.408806999999999962e-02
1.420200000000000000e+05 9.999363000000000001e-01 -2.368713999999999889e-02
1.422550000000000000e+05 9.997551999999999550e-01 -2.426839000000000079e-02
1.424910000000000000e+05 9.997747999999999635e-01 -2.390994000000000105e-02
1.427270000000000000e+05 9.979346000000000050e-01 -2.468236000000000041e-02
1.429620000000000000e+05 9.999061999999999673e-01 -2.372138999999999845e-02
1.431980000000000000e+05 1.000575999999999910e+00 -2.563129999999999922e-02
1.434340000000000000e+05 1.001222000000000056e+00 -2.438283000000000117e-02
1.436690000000000000e+05 1.001359000000000110e+00 -2.474867999999999860e-02
1.439050000000000000e+05 1.000251999999999919e+00 -2.530796999999999908e-02
1.441400000000000000e+05 1.000221000000000027e+00 -2.582384999999999889e-02
1.443760000000000000e+05 9.998443000000000191e-01 -2.493652000000000021e-02
1.446120000000000000e+05 1.000185000000000102e+00 -2.415451000000000056e-02
1.448470000000000000e+05 1.000721999999999889e+00 -2.524146000000000029e-02
1.450830000000000000e+05 1.001878000000000046e+00 -2.523339999999999958e-02
1.453190000000000000e+05 9.986787999999999776e-01 -2.476377999999999913e-02
1.455540000000000000e+05 1.001376999999999962e+00 -2.430372999999999908e-02
1.457900000000000000e+05 1.000510000000000010e+00 -2.637872000000000133e-02
1.460260000000000000e+05 9.995458999999999872e-01 -2.501398999999999984e-02
1.462610000000000000e+05 9.994469000000000269e-01 -2.436941000000000107e-02
1.464970000000000000e+05 1.001141000000000059e+00 -2.662401000000000004e-02
1.467330000000000000e+05 1.000172000000000061e+00 -2.517383999999999941e-02
1.469680000000000000e+05 9.999145999999999868e-01 -2.574850999999999876e-02
1.472040000000000000e+05 1.001797999999999966e+00 -2.514067000000000038e-02
1.474390000000000000e+05 1.001031999999999922e+00 -2.556098999999999871e-02
1.476750000000000000e+05 9.992805999999999633e-01 -2.552524999999999933e-02
1.479110000000000000e+05 1.000520999999999994e+00 -2.534546000000000021e-02
1.481460000000000000e+05 9.999128999999999934e-01 -2.521233999999999975e-02
1.483820000000000000e+05 1.000335999999999892e+00 -2.513313000000000005e-02
1.486180000000000000e+05 9.993421999999999583e-01 -2.558198999999999890e-02
1.488530000000000000e+05 9.990485000000000060e-01 -2.609500999999999835e-02
